================================================
Running Validation for DUT: SoC
================================================
------------------------------------------------
Starting TC:TC_SOC_ROM_LoadPmem
	Reading bin file: 'mips-bin/regfile.bin'
	ADDR[0x0000] Data:0x20080064
	ADDR[0x0004] Data:0x200900c9
	ADDR[0x0008] Data:0x200a012e
	ADDR[0x000c] Data:0x200b0193
	ADDR[0x0010] Data:0x200c01f8
	ADDR[0x0014] Data:0x200d025d
	ADDR[0x0018] Data:0x200e02c2
	ADDR[0x001c] Data:0x200f0327
	ADDR[0x0020] Data:0x00000000
	ADDR[0x0024] Data:0x00000000
	ADDR[0x0028] Data:0x00000000
	ADDR[0x002c] Data:0x00000000
	ADDR[0x0030] Data:0x08000008
	Loading ROM[00]...
	Verifying ROM[00]...
Finished TC:TC_SOC_ROM_LoadPmem [PASS]
------------------------------------------------
------------------------------------------------
Starting TC:TC_SOC_ROM_LoadPmemEmem
	Reading bin file: 'mips-bin/regfile.bin'
	ADDR[0x0000] Data:0x20080064
	ADDR[0x0004] Data:0x200900c9
	ADDR[0x0008] Data:0x200a012e
	ADDR[0x000c] Data:0x200b0193
	ADDR[0x0010] Data:0x200c01f8
	ADDR[0x0014] Data:0x200d025d
	ADDR[0x0018] Data:0x200e02c2
	ADDR[0x001c] Data:0x200f0327
	ADDR[0x0020] Data:0x00000000
	ADDR[0x0024] Data:0x00000000
	ADDR[0x0028] Data:0x00000000
	ADDR[0x002c] Data:0x00000000
	ADDR[0x0030] Data:0x08000008
	Loading ROM[00]...
	Verifying ROM[00]...
	Reading bin file: 'mips-bin/exc.bin'
	ADDR[0x0000] Data:0x2010000a
	ADDR[0x0004] Data:0x2011000b
	ADDR[0x0008] Data:0x2012000c
	ADDR[0x000c] Data:0x2013000d
	ADDR[0x0010] Data:0x2014000e
	ADDR[0x0014] Data:0x2015000f
	ADDR[0x0018] Data:0x20160010
	ADDR[0x001c] Data:0x20170011
	ADDR[0x0020] Data:0x00000000
	ADDR[0x0024] Data:0x00000000
	ADDR[0x0028] Data:0x00000000
	ADDR[0x002c] Data:0x00000000
	ADDR[0x0030] Data:0x08000008
	Loading ROM[01]...
	Verifying ROM[01]...
	Running MIPS Program...
	Checking Register File...
Finished TC:TC_SOC_ROM_LoadPmemEmem [PASS]
------------------------------------------------
------------------------------------------------
Starting TC:TC_SOC_MIPS_RegisterFile
	Reading bin file: 'mips-bin/testmips-regfile.bin'
	ADDR[0x0000] Data:0x200003e8
	ADDR[0x0004] Data:0x200103e9
	ADDR[0x0008] Data:0x200203ea
	ADDR[0x000c] Data:0x200303eb
	ADDR[0x0010] Data:0x200403ec
	ADDR[0x0014] Data:0x200503ed
	ADDR[0x0018] Data:0x200603ee
	ADDR[0x001c] Data:0x200703ef
	ADDR[0x0020] Data:0x200803f0
	ADDR[0x0024] Data:0x200903f1
	ADDR[0x0028] Data:0x200a03f2
	ADDR[0x002c] Data:0x200b03f3
	ADDR[0x0030] Data:0x200c03f4
	ADDR[0x0034] Data:0x200d03f5
	ADDR[0x0038] Data:0x200e03f6
	ADDR[0x003c] Data:0x200f03f7
	ADDR[0x0040] Data:0x201003f8
	ADDR[0x0044] Data:0x201103f9
	ADDR[0x0048] Data:0x201203fa
	ADDR[0x004c] Data:0x201303fb
	ADDR[0x0050] Data:0x201403fc
	ADDR[0x0054] Data:0x201503fd
	ADDR[0x0058] Data:0x201603fe
	ADDR[0x005c] Data:0x201703ff
	ADDR[0x0060] Data:0x20180400
	ADDR[0x0064] Data:0x20190401
	ADDR[0x0068] Data:0x201a0402
	ADDR[0x006c] Data:0x201b0403
	ADDR[0x0070] Data:0x201c0404
	ADDR[0x0074] Data:0x201d0405
	ADDR[0x0078] Data:0x201e0406
	ADDR[0x007c] Data:0x201f0407
	ADDR[0x0080] Data:0x00000000
	ADDR[0x0084] Data:0x08000020
	Loading ROM[00]...
	Verifying ROM[00]...
	Checking Register File...
	Checking Register File Reset...
Finished TC:TC_SOC_MIPS_RegisterFile [PASS]
------------------------------------------------
------------------------------------------------
Starting TC:TC_SOC_MIPS_DmemReadWrite
	Reading bin file: 'mips-bin/testmips-dmem.bin'
	ADDR[0x0000] Data:0x20091771
	ADDR[0x0004] Data:0x200a1b5a
	ADDR[0x0008] Data:0x200b1f43
	ADDR[0x000c] Data:0xac090000
	ADDR[0x0010] Data:0xac0a000c
	ADDR[0x0014] Data:0xac0b001c
	ADDR[0x0018] Data:0x8c100000
	ADDR[0x001c] Data:0x8c11000c
	ADDR[0x0020] Data:0x8c12001c
	ADDR[0x0024] Data:0x00000000
	ADDR[0x0028] Data:0x00000000
	ADDR[0x002c] Data:0x08000009
	Loading ROM[00]...
	Verifying ROM[00]...
	Checking Results written back to RegisterFile...
Finished TC:TC_SOC_MIPS_DmemReadWrite [PASS]
------------------------------------------------
------------------------------------------------
Starting TC:TC_SOC_FACT_Fact0
	Reading bin file: 'mips-bin/testsoc-fact0.bin'
	ADDR[0x0000] Data:0x20080000
	ADDR[0x0004] Data:0xac082000
	ADDR[0x0008] Data:0x20080020
	ADDR[0x000c] Data:0xac082004
	ADDR[0x0010] Data:0x20080040
	ADDR[0x0014] Data:0xac082008
	ADDR[0x0018] Data:0x20080060
	ADDR[0x001c] Data:0xac08200c
	ADDR[0x0020] Data:0x20080005
	ADDR[0x0024] Data:0x20090001
	ADDR[0x0028] Data:0x200a0000
	ADDR[0x002c] Data:0xac083000
	ADDR[0x0030] Data:0xac093004
	ADDR[0x0034] Data:0x200b0014
	ADDR[0x0038] Data:0x116a0002
	ADDR[0x003c] Data:0x214a0001
	ADDR[0x0040] Data:0x0800000e
	ADDR[0x0044] Data:0x8c0c3008
	ADDR[0x0048] Data:0x8c0d300c
	ADDR[0x004c] Data:0x00000000
	ADDR[0x0050] Data:0x00000000
	ADDR[0x0054] Data:0x08000013
	Loading ROM[00]...
	Verifying ROM[00]...
	Reading bin file: 'mips-bin/testsoc-fact-isrs.bin'
	ADDR[0x0000] Data:0x8c103008
	ADDR[0x0004] Data:0x00000000
	ADDR[0x0008] Data:0x00000000
	ADDR[0x000c] Data:0x00000000
	ADDR[0x0010] Data:0x00000000
	ADDR[0x0014] Data:0x8c11300c
	ADDR[0x0018] Data:0xfc000000
	ADDR[0x001c] Data:0x00000000
	ADDR[0x0020] Data:0x8c0f4008
	ADDR[0x0024] Data:0x20180001
	ADDR[0x0028] Data:0x01f8c024
	ADDR[0x002c] Data:0x13000002
	ADDR[0x0030] Data:0x21f20000
	ADDR[0x0034] Data:0x8c13400c
	ADDR[0x0038] Data:0xfc000000
	ADDR[0x003c] Data:0x00000000
	ADDR[0x0040] Data:0x8c0f5008
	ADDR[0x0044] Data:0x20180001
	ADDR[0x0048] Data:0x01f8c024
	ADDR[0x004c] Data:0x13000002
	ADDR[0x0050] Data:0x21f40000
	ADDR[0x0054] Data:0x8c15500c
	ADDR[0x0058] Data:0xfc000000
	ADDR[0x005c] Data:0x00000000
	ADDR[0x0060] Data:0x8c0f6008
	ADDR[0x0064] Data:0x20180001
	ADDR[0x0068] Data:0x01f8c024
	ADDR[0x006c] Data:0x13000002
	ADDR[0x0070] Data:0x21f60000
	ADDR[0x0074] Data:0x8c17600c
	ADDR[0x0078] Data:0xfc000000
	ADDR[0x007c] Data:0x00000000
	Loading ROM[01]...
	Verifying ROM[01]...
Manualy Stepping Program..
	PC[0x00000004]
	PC[0x00000008]
	PC[0x0000000c]
	PC[0x00000010]
	PC[0x00000014]
	PC[0x00000018]
	PC[0x0000001c]
	PC[0x00000020]
	PC[0x00000024]
	PC[0x00000028]
	PC[0x0000002c]
	PC[0x00000030]
	PC[0x00000034]
	PC[0x00000038]
	PC[0x0000003c]
	PC[0x00000040]
	PC[0x00000038]
	PC[0x0000003c]
	PC[0x00000040]
	PC[0x00000038]
	PC[0x0000003c]
	PC[0x00000000]
	PC[0x00000004]
	PC[0x00000008]
	PC[0x0000000c]
	PC[0x00000010]
	PC[0x00000014]
	PC[0x00000018]
	PC[0x00000040]
	PC[0x00000038]
	PC[0x0000003c]
	PC[0x00000040]
	PC[0x00000038]
	PC[0x0000003c]
	PC[0x00000040]
	PC[0x00000038]
	PC[0x0000003c]
	PC[0x00000040]
	PC[0x00000038]
	PC[0x0000003c]
	PC[0x00000040]
	PC[0x00000038]
	PC[0x0000003c]
	PC[0x00000040]
	PC[0x00000038]
	PC[0x0000003c]
	PC[0x00000040]
	PC[0x00000038]
	PC[0x0000003c]
	PC[0x00000040]
	PC[0x00000038]
	PC[0x0000003c]
	PC[0x00000040]
	PC[0x00000038]
	PC[0x0000003c]
	PC[0x00000040]
	PC[0x00000038]
	PC[0x0000003c]
	PC[0x00000040]
	PC[0x00000038]
	PC[0x0000003c]
	PC[0x00000040]
	PC[0x00000038]
	PC[0x0000003c]
	PC[0x00000040]
	PC[0x00000038]
	PC[0x0000003c]
	PC[0x00000040]
	PC[0x00000038]
	PC[0x0000003c]
	PC[0x00000040]
	PC[0x00000038]
	PC[0x0000003c]
	PC[0x00000040]
	PC[0x00000038]
	PC[0x0000003c]
	PC[0x00000040]
	PC[0x00000038]
	PC[0x0000003c]
	PC[0x00000040]
	PC[0x00000038]
	PC[0x00000044]
	PC[0x00000048]
	PC[0x0000004c]
	PC[0x00000050]
	PC[0x00000054]
	PC[0x0000004c]
	PC[0x00000050]
	PC[0x00000054]
	PC[0x0000004c]
	PC[0x00000050]
	PC[0x00000054]
	PC[0x0000004c]
	PC[0x00000050]
	PC[0x00000054]
	PC[0x0000004c]
	PC[0x00000050]
	PC[0x00000054]
	PC[0x0000004c]
	PC[0x00000050]
	Checking Results written back to RegisterFile...
		RF[16] Data:0x00000001
		RF[17] Data:0x00000078
		RF[10] Data:0x00000014
		RF[12] Data:0x00000001
		RF[13] Data:0x00000078
Finished TC:TC_SOC_FACT_Fact0 [PASS]
------------------------------------------------
------------------------------------------------
Starting TC:TC_SOC_FACT_Fact1
	Reading bin file: 'mips-bin/testsoc-fact1.bin'
	ADDR[0x0000] Data:0x20080000
	ADDR[0x0004] Data:0xac082000
	ADDR[0x0008] Data:0x20080020
	ADDR[0x000c] Data:0xac082004
	ADDR[0x0010] Data:0x20080040
	ADDR[0x0014] Data:0xac082008
	ADDR[0x0018] Data:0x20080060
	ADDR[0x001c] Data:0xac08200c
	ADDR[0x0020] Data:0x20080006
	ADDR[0x0024] Data:0x20090001
	ADDR[0x0028] Data:0x200a0000
	ADDR[0x002c] Data:0xac084000
	ADDR[0x0030] Data:0xac094004
	ADDR[0x0034] Data:0x200b0014
	ADDR[0x0038] Data:0x116a0002
	ADDR[0x003c] Data:0x214a0001
	ADDR[0x0040] Data:0x0800000e
	ADDR[0x0044] Data:0x8c0c4008
	ADDR[0x0048] Data:0x8c0d400c
	ADDR[0x004c] Data:0x00000000
	ADDR[0x0050] Data:0x00000000
	ADDR[0x0054] Data:0x08000013
	Loading ROM[00]...
	Verifying ROM[00]...
	Reading bin file: 'mips-bin/testsoc-fact-isrs.bin'
	ADDR[0x0000] Data:0x8c103008
	ADDR[0x0004] Data:0x00000000
	ADDR[0x0008] Data:0x00000000
	ADDR[0x000c] Data:0x00000000
	ADDR[0x0010] Data:0x00000000
	ADDR[0x0014] Data:0x8c11300c
	ADDR[0x0018] Data:0xfc000000
	ADDR[0x001c] Data:0x00000000
	ADDR[0x0020] Data:0x8c0f4008
	ADDR[0x0024] Data:0x20180001
	ADDR[0x0028] Data:0x01f8c024
	ADDR[0x002c] Data:0x13000002
	ADDR[0x0030] Data:0x21f20000
	ADDR[0x0034] Data:0x8c13400c
	ADDR[0x0038] Data:0xfc000000
	ADDR[0x003c] Data:0x00000000
	ADDR[0x0040] Data:0x8c0f5008
	ADDR[0x0044] Data:0x20180001
	ADDR[0x0048] Data:0x01f8c024
	ADDR[0x004c] Data:0x13000002
	ADDR[0x0050] Data:0x21f40000
	ADDR[0x0054] Data:0x8c15500c
	ADDR[0x0058] Data:0xfc000000
	ADDR[0x005c] Data:0x00000000
	ADDR[0x0060] Data:0x8c0f6008
	ADDR[0x0064] Data:0x20180001
	ADDR[0x0068] Data:0x01f8c024
	ADDR[0x006c] Data:0x13000002
	ADDR[0x0070] Data:0x21f60000
	ADDR[0x0074] Data:0x8c17600c
	ADDR[0x0078] Data:0xfc000000
	ADDR[0x007c] Data:0x00000000
	Loading ROM[01]...
	Verifying ROM[01]...
Manualy Stepping Program..
	PC[0x00000004]
	PC[0x00000008]
	PC[0x0000000c]
	PC[0x00000010]
	PC[0x00000014]
	PC[0x00000018]
	PC[0x0000001c]
	PC[0x00000020]
	PC[0x00000024]
	PC[0x00000028]
	PC[0x0000002c]
	PC[0x00000030]
	PC[0x00000034]
	PC[0x00000038]
	PC[0x0000003c]
	PC[0x00000040]
	PC[0x00000038]
	PC[0x0000003c]
	PC[0x00000040]
	PC[0x00000038]
	PC[0x0000003c]
	PC[0x00000040]
	PC[0x00000020]
	PC[0x00000024]
	PC[0x00000028]
	PC[0x0000002c]
	PC[0x00000030]
	PC[0x00000034]
	PC[0x00000038]
	PC[0x00000038]
	PC[0x0000003c]
	PC[0x00000040]
	PC[0x00000038]
	PC[0x0000003c]
	PC[0x00000040]
	PC[0x00000038]
	PC[0x0000003c]
	PC[0x00000040]
	PC[0x00000038]
	PC[0x0000003c]
	PC[0x00000040]
	PC[0x00000038]
	PC[0x0000003c]
	PC[0x00000040]
	PC[0x00000038]
	PC[0x0000003c]
	PC[0x00000040]
	PC[0x00000038]
	PC[0x0000003c]
	PC[0x00000040]
	PC[0x00000038]
	PC[0x0000003c]
	PC[0x00000040]
	PC[0x00000038]
	PC[0x0000003c]
	PC[0x00000040]
	PC[0x00000038]
	PC[0x0000003c]
	PC[0x00000040]
	PC[0x00000038]
	PC[0x0000003c]
	PC[0x00000040]
	PC[0x00000038]
	PC[0x0000003c]
	PC[0x00000040]
	PC[0x00000038]
	PC[0x0000003c]
	PC[0x00000040]
	PC[0x00000038]
	PC[0x0000003c]
	PC[0x00000040]
	PC[0x00000038]
	PC[0x0000003c]
	PC[0x00000040]
	PC[0x00000038]
	PC[0x0000003c]
	PC[0x00000040]
	PC[0x00000038]
	PC[0x0000003c]
	PC[0x00000040]
	PC[0x00000038]
	PC[0x00000044]
	PC[0x00000048]
	PC[0x0000004c]
	PC[0x00000050]
	PC[0x00000054]
	PC[0x0000004c]
	PC[0x00000050]
	PC[0x00000054]
	PC[0x0000004c]
	PC[0x00000050]
	PC[0x00000054]
	PC[0x0000004c]
	PC[0x00000050]
	PC[0x00000054]
	PC[0x0000004c]
	PC[0x00000050]
	PC[0x00000054]
	PC[0x0000004c]
	PC[0x00000050]
	Checking Results written back to RegisterFile...
		RF[18] Data:0x00000001
		RF[19] Data:0x000002d0
		RF[10] Data:0x00000014
		RF[12] Data:0x00000001
		RF[13] Data:0x000002d0
Finished TC:TC_SOC_FACT_Fact1 [PASS]
------------------------------------------------
------------------------------------------------
Starting TC:TC_SOC_FACT_Fact2
	Reading bin file: 'mips-bin/testsoc-fact2.bin'
	ADDR[0x0000] Data:0x20080000
	ADDR[0x0004] Data:0xac082000
	ADDR[0x0008] Data:0x20080020
	ADDR[0x000c] Data:0xac082004
	ADDR[0x0010] Data:0x20080040
	ADDR[0x0014] Data:0xac082008
	ADDR[0x0018] Data:0x20080060
	ADDR[0x001c] Data:0xac08200c
	ADDR[0x0020] Data:0x20080007
	ADDR[0x0024] Data:0x20090001
	ADDR[0x0028] Data:0x200a0000
	ADDR[0x002c] Data:0xac085000
	ADDR[0x0030] Data:0xac095004
	ADDR[0x0034] Data:0x200b0014
	ADDR[0x0038] Data:0x116a0002
	ADDR[0x003c] Data:0x214a0001
	ADDR[0x0040] Data:0x0800000e
	ADDR[0x0044] Data:0x8c0c5008
	ADDR[0x0048] Data:0x8c0d500c
	ADDR[0x004c] Data:0x00000000
	ADDR[0x0050] Data:0x00000000
	ADDR[0x0054] Data:0x08000013
	Loading ROM[00]...
	Verifying ROM[00]...
	Reading bin file: 'mips-bin/testsoc-fact-isrs.bin'
	ADDR[0x0000] Data:0x8c103008
	ADDR[0x0004] Data:0x00000000
	ADDR[0x0008] Data:0x00000000
	ADDR[0x000c] Data:0x00000000
	ADDR[0x0010] Data:0x00000000
	ADDR[0x0014] Data:0x8c11300c
	ADDR[0x0018] Data:0xfc000000
	ADDR[0x001c] Data:0x00000000
	ADDR[0x0020] Data:0x8c0f4008
	ADDR[0x0024] Data:0x20180001
	ADDR[0x0028] Data:0x01f8c024
	ADDR[0x002c] Data:0x13000002
	ADDR[0x0030] Data:0x21f20000
	ADDR[0x0034] Data:0x8c13400c
	ADDR[0x0038] Data:0xfc000000
	ADDR[0x003c] Data:0x00000000
	ADDR[0x0040] Data:0x8c0f5008
	ADDR[0x0044] Data:0x20180001
	ADDR[0x0048] Data:0x01f8c024
	ADDR[0x004c] Data:0x13000002
	ADDR[0x0050] Data:0x21f40000
	ADDR[0x0054] Data:0x8c15500c
	ADDR[0x0058] Data:0xfc000000
	ADDR[0x005c] Data:0x00000000
	ADDR[0x0060] Data:0x8c0f6008
	ADDR[0x0064] Data:0x20180001
	ADDR[0x0068] Data:0x01f8c024
	ADDR[0x006c] Data:0x13000002
	ADDR[0x0070] Data:0x21f60000
	ADDR[0x0074] Data:0x8c17600c
	ADDR[0x0078] Data:0xfc000000
	ADDR[0x007c] Data:0x00000000
	Loading ROM[01]...
	Verifying ROM[01]...
Manualy Stepping Program..
	PC[0x00000004]
	PC[0x00000008]
	PC[0x0000000c]
	PC[0x00000010]
	PC[0x00000014]
	PC[0x00000018]
	PC[0x0000001c]
	PC[0x00000020]
	PC[0x00000024]
	PC[0x00000028]
	PC[0x0000002c]
	PC[0x00000030]
	PC[0x00000034]
	PC[0x00000038]
	PC[0x0000003c]
	PC[0x00000040]
	PC[0x00000038]
	PC[0x0000003c]
	PC[0x00000040]
	PC[0x00000038]
	PC[0x0000003c]
	PC[0x00000040]
	PC[0x00000038]
	PC[0x00000040]
	PC[0x00000044]
	PC[0x00000048]
	PC[0x0000004c]
	PC[0x00000050]
	PC[0x00000054]
	PC[0x00000058]
	PC[0x0000003c]
	PC[0x00000040]
	PC[0x00000038]
	PC[0x0000003c]
	PC[0x00000040]
	PC[0x00000038]
	PC[0x0000003c]
	PC[0x00000040]
	PC[0x00000038]
	PC[0x0000003c]
	PC[0x00000040]
	PC[0x00000038]
	PC[0x0000003c]
	PC[0x00000040]
	PC[0x00000038]
	PC[0x0000003c]
	PC[0x00000040]
	PC[0x00000038]
	PC[0x0000003c]
	PC[0x00000040]
	PC[0x00000038]
	PC[0x0000003c]
	PC[0x00000040]
	PC[0x00000038]
	PC[0x0000003c]
	PC[0x00000040]
	PC[0x00000038]
	PC[0x0000003c]
	PC[0x00000040]
	PC[0x00000038]
	PC[0x0000003c]
	PC[0x00000040]
	PC[0x00000038]
	PC[0x0000003c]
	PC[0x00000040]
	PC[0x00000038]
	PC[0x0000003c]
	PC[0x00000040]
	PC[0x00000038]
	PC[0x0000003c]
	PC[0x00000040]
	PC[0x00000038]
	PC[0x0000003c]
	PC[0x00000040]
	PC[0x00000038]
	PC[0x0000003c]
	PC[0x00000040]
	PC[0x00000038]
	PC[0x0000003c]
	PC[0x00000040]
	PC[0x00000038]
	PC[0x00000044]
	PC[0x00000048]
	PC[0x0000004c]
	PC[0x00000050]
	PC[0x00000054]
	PC[0x0000004c]
	PC[0x00000050]
	PC[0x00000054]
	PC[0x0000004c]
	PC[0x00000050]
	PC[0x00000054]
	PC[0x0000004c]
	PC[0x00000050]
	PC[0x00000054]
	PC[0x0000004c]
	PC[0x00000050]
	PC[0x00000054]
	PC[0x0000004c]
	PC[0x00000050]
	Checking Results written back to RegisterFile...
		RF[20] Data:0x00000001
		RF[21] Data:0x000013b0
		RF[10] Data:0x00000014
		RF[12] Data:0x00000001
		RF[13] Data:0x000013b0
Finished TC:TC_SOC_FACT_Fact2 [PASS]
------------------------------------------------
------------------------------------------------
Starting TC:TC_SOC_FACT_Fact3
	Reading bin file: 'mips-bin/testsoc-fact3.bin'
	ADDR[0x0000] Data:0x20080000
	ADDR[0x0004] Data:0xac082000
	ADDR[0x0008] Data:0x20080020
	ADDR[0x000c] Data:0xac082004
	ADDR[0x0010] Data:0x20080040
	ADDR[0x0014] Data:0xac082008
	ADDR[0x0018] Data:0x20080060
	ADDR[0x001c] Data:0xac08200c
	ADDR[0x0020] Data:0x20080008
	ADDR[0x0024] Data:0x20090001
	ADDR[0x0028] Data:0x200a0000
	ADDR[0x002c] Data:0xac086000
	ADDR[0x0030] Data:0xac096004
	ADDR[0x0034] Data:0x200b0014
	ADDR[0x0038] Data:0x116a0002
	ADDR[0x003c] Data:0x214a0001
	ADDR[0x0040] Data:0x0800000e
	ADDR[0x0044] Data:0x8c0c6008
	ADDR[0x0048] Data:0x8c0d600c
	ADDR[0x004c] Data:0x00000000
	ADDR[0x0050] Data:0x00000000
	ADDR[0x0054] Data:0x08000013
	Loading ROM[00]...
	Verifying ROM[00]...
	Reading bin file: 'mips-bin/testsoc-fact-isrs.bin'
	ADDR[0x0000] Data:0x8c103008
	ADDR[0x0004] Data:0x00000000
	ADDR[0x0008] Data:0x00000000
	ADDR[0x000c] Data:0x00000000
	ADDR[0x0010] Data:0x00000000
	ADDR[0x0014] Data:0x8c11300c
	ADDR[0x0018] Data:0xfc000000
	ADDR[0x001c] Data:0x00000000
	ADDR[0x0020] Data:0x8c0f4008
	ADDR[0x0024] Data:0x20180001
	ADDR[0x0028] Data:0x01f8c024
	ADDR[0x002c] Data:0x13000002
	ADDR[0x0030] Data:0x21f20000
	ADDR[0x0034] Data:0x8c13400c
	ADDR[0x0038] Data:0xfc000000
	ADDR[0x003c] Data:0x00000000
	ADDR[0x0040] Data:0x8c0f5008
	ADDR[0x0044] Data:0x20180001
	ADDR[0x0048] Data:0x01f8c024
	ADDR[0x004c] Data:0x13000002
	ADDR[0x0050] Data:0x21f40000
	ADDR[0x0054] Data:0x8c15500c
	ADDR[0x0058] Data:0xfc000000
	ADDR[0x005c] Data:0x00000000
	ADDR[0x0060] Data:0x8c0f6008
	ADDR[0x0064] Data:0x20180001
	ADDR[0x0068] Data:0x01f8c024
	ADDR[0x006c] Data:0x13000002
	ADDR[0x0070] Data:0x21f60000
	ADDR[0x0074] Data:0x8c17600c
	ADDR[0x0078] Data:0xfc000000
	ADDR[0x007c] Data:0x00000000
	Loading ROM[01]...
	Verifying ROM[01]...
Manualy Stepping Program..
	PC[0x00000004]
	PC[0x00000008]
	PC[0x0000000c]
	PC[0x00000010]
	PC[0x00000014]
	PC[0x00000018]
	PC[0x0000001c]
	PC[0x00000020]
	PC[0x00000024]
	PC[0x00000028]
	PC[0x0000002c]
	PC[0x00000030]
	PC[0x00000034]
	PC[0x00000038]
	PC[0x0000003c]
	PC[0x00000040]
	PC[0x00000038]
	PC[0x0000003c]
	PC[0x00000040]
	PC[0x00000038]
	PC[0x0000003c]
	PC[0x00000040]
	PC[0x00000038]
	PC[0x0000003c]
	PC[0x00000060]
	PC[0x00000064]
	PC[0x00000068]
	PC[0x0000006c]
	PC[0x00000070]
	PC[0x00000074]
	PC[0x00000078]
	PC[0x00000040]
	PC[0x00000038]
	PC[0x0000003c]
	PC[0x00000040]
	PC[0x00000038]
	PC[0x0000003c]
	PC[0x00000040]
	PC[0x00000038]
	PC[0x0000003c]
	PC[0x00000040]
	PC[0x00000038]
	PC[0x0000003c]
	PC[0x00000040]
	PC[0x00000038]
	PC[0x0000003c]
	PC[0x00000040]
	PC[0x00000038]
	PC[0x0000003c]
	PC[0x00000040]
	PC[0x00000038]
	PC[0x0000003c]
	PC[0x00000040]
	PC[0x00000038]
	PC[0x0000003c]
	PC[0x00000040]
	PC[0x00000038]
	PC[0x0000003c]
	PC[0x00000040]
	PC[0x00000038]
	PC[0x0000003c]
	PC[0x00000040]
	PC[0x00000038]
	PC[0x0000003c]
	PC[0x00000040]
	PC[0x00000038]
	PC[0x0000003c]
	PC[0x00000040]
	PC[0x00000038]
	PC[0x0000003c]
	PC[0x00000040]
	PC[0x00000038]
	PC[0x0000003c]
	PC[0x00000040]
	PC[0x00000038]
	PC[0x0000003c]
	PC[0x00000040]
	PC[0x00000038]
	PC[0x0000003c]
	PC[0x00000040]
	PC[0x00000038]
	PC[0x00000044]
	PC[0x00000048]
	PC[0x0000004c]
	PC[0x00000050]
	PC[0x00000054]
	PC[0x0000004c]
	PC[0x00000050]
	PC[0x00000054]
	PC[0x0000004c]
	PC[0x00000050]
	PC[0x00000054]
	PC[0x0000004c]
	PC[0x00000050]
	PC[0x00000054]
	PC[0x0000004c]
	PC[0x00000050]
	PC[0x00000054]
	PC[0x0000004c]
	PC[0x00000050]
	Checking Results written back to RegisterFile...
		RF[22] Data:0x00000001
		RF[23] Data:0x00009d80
		RF[10] Data:0x00000014
		RF[12] Data:0x00000001
		RF[13] Data:0x00009d80
Finished TC:TC_SOC_FACT_Fact3 [PASS]
------------------------------------------------
------------------------------------------------
Starting TC:TC_SOC_ISR_Reconfigure
Finished TC:TC_SOC_ISR_Reconfigure [FAIL]
------------------------------------------------
------------------------------------------------
Starting TC:TC_SOC_ISR_Simultaneous
Finished TC:TC_SOC_ISR_Simultaneous [FAIL]
------------------------------------------------
------------------------------------------------
Starting TC:TC_SOC_ISR_Multiple
Finished TC:TC_SOC_ISR_Multiple [FAIL]
------------------------------------------------
================================================
Validation Tests Failed!
	Total Passed: 8
	Total Failed: 3
================================================
